FSW_SET,Frequency (kHz),VIN (V),IIN (A),VOUT (V),IOUT (A),Efficiency (%),PLoss (W),VIN_ADC,VOUT_ADC,IIN_ADC,IBAT_ADC,VEXT_ADC,TDIE_ADC
0,287.216,17.66102,0.251807,4.39905,0.998749,98.7942513279081,0.053621674690000454,17.69375,4.39375,0.226875,1.05375,17.66875,37.5
0,287.4885,17.7246,0.4984053,4.399539,1.99901,99.55499241448172,0.03931212398999939,17.7625,4.3950000000000005,0.474375,2.07375,17.73125,37.5
0,287.5657,17.78738,0.7452085,4.399781,2.99913,99.54892346708225,0.059791578199998696,17.825,4.3950000000000005,0.718125,3.09,17.79375,38.0
0,287.5381,17.84711,0.9918616,4.399187,3.99939,99.39103255087348,0.10779858404599807,17.8875,4.39375,0.965625,4.09125,17.85,38.5
0,287.7036,17.91012,1.238242,4.399283,4.9995,99.17551096773074,0.18284745053999885,17.94375,4.39625,1.2093749999999999,5.11125,17.91875,39.5
0,287.8002,17.97282,1.484978,4.399241,5.9995,98.8909542086078,0.29599591845999385,18.00625,4.39625,1.453125,6.15375,17.98125,41.0
0,288.201,18.03622,1.73153,4.399181,6.99934,98.59465616987988,0.4388924760600048,18.075,4.39625,1.69875,7.14375,18.04375,42.5
0,288.4837,18.10251,1.978176,4.399763,8.0029,98.32703621392308,0.5990875090599985,18.1375,4.39625,1.94625,8.129999999999999,18.10625,44.5
0,288.68359999999996,18.16628,2.225029,4.399483,8.99919,97.9497621083436,0.8287164033500076,18.20625,4.39625,2.18625,9.19875,18.175,47.0
0,289.1845,18.23263,2.471643,4.399681,9.99945,97.6252684632204,1.0701621356399968,18.26875,4.3950000000000005,2.4299999999999997,10.185,18.243750000000002,49.5

FSW_SET,Frequency (kHz),VIN (V),IIN (A),VOUT (V),IOUT (A),Efficiency (%),PLoss (W),VIN_ADC,VOUT_ADC,IIN_ADC,IBAT_ADC,VEXT_ADC,TDIE_ADC
1,378.2768,17.6611,0.2532296,4.400099,0.998886,98.27570221783746,0.07711599884600062,17.7,4.39625,0.22874999999999998,1.05375,17.6625,38.5
1,378.3341,17.71748,0.5001998,4.400212,1.99901,99.252876655456,0.06621216238399974,17.75625,4.39625,0.474375,2.08875,17.71875,37.5
1,378.40090000000004,17.76967,0.7466691,4.399219,2.99899,99.43586554773394,0.0748497173869982,17.806250000000002,4.3950000000000005,0.7162499999999999,3.07125,17.775000000000002,38.0
1,378.4438,17.8259,0.9931064,4.399194,3.99939,99.38472129302252,0.10892288410000006,17.8625,4.3950000000000005,0.965625,4.09875,17.83125,38.5
1,378.78790000000004,17.88524,1.239463,4.399844,4.99963,99.2308712947891,0.1705011684000013,17.931250000000002,4.3975,1.2093749999999999,5.08125,17.89375,39.5
1,378.92179999999996,17.94195,1.486123,4.399774,5.9995,98.99677091568518,0.2675004468499971,17.98125,4.3950000000000005,1.4549999999999998,6.11625,17.95,40.5
1,379.2284,17.99763,1.732799,4.39936,6.99934,98.73771766391575,0.3936588439700017,18.03125,4.3950000000000005,1.696875,7.1362499999999995,18.0,42.0
1,379.4778,18.05729,1.979177,4.399779,7.99881,98.4734231370355,0.5455767873400035,18.09375,4.3950000000000005,1.94625,8.145,18.0625,44.0
1,379.8045,18.11314,2.226105,4.399073,8.99919,98.18049131999746,0.7336577688299997,18.15625,4.39625,2.188125,9.17625,18.118750000000002,46.0
1,380.1318,18.17326,2.472324,4.399328,9.99957,97.9105393656968,0.9387985672800028,18.20625,4.3975,2.43375,10.15875,18.181250000000002,48.5

FSW_SET,Frequency (kHz),VIN (V),IIN (A),VOUT (V),IOUT (A),Efficiency (%),PLoss (W),VIN_ADC,VOUT_ADC,IIN_ADC,IBAT_ADC,VEXT_ADC,TDIE_ADC
2,471.4757,17.66118,0.2550706,4.400266,0.999023,97.58302956006372,0.10888083919000024,17.7,4.39625,0.230625,1.0725,17.6625,37.5
2,471.63140000000004,17.71053,0.501572,4.399171,1.99887,98.98982386495032,0.0897350163899997,17.75,4.3950000000000005,0.47812499999999997,2.08875,17.71875,37.0
2,471.80940000000004,17.7662,0.7481618,4.399634,2.99899,99.26622134406892,0.0975338015000009,17.806250000000002,4.39625,0.7218749999999999,3.0675,17.76875,37.5
2,471.72040000000004,17.81879,0.9947562,4.399284,3.99925,99.25803846791436,0.13151529199800294,17.85625,4.39625,0.965625,4.11375,17.81875,38.0
2,472.27729999999997,17.87467,1.241227,4.399664,4.99977,99.14716270486066,0.18921494281000406,17.9125,4.3950000000000005,1.21125,5.12625,17.875,39.0
2,472.5005,17.92778,1.487802,4.399294,5.9995,98.95241358909988,0.2794225865599955,17.96875,4.3950000000000005,1.456875,6.123749999999999,17.931250000000002,40.0
2,472.4112,17.98357,1.734512,4.399488,6.99934,98.72019607162291,0.39920562992000086,18.01875,4.3950000000000005,1.7006249999999998,7.11375,17.9875,41.5
2,472.90270000000004,18.03967,1.980912,4.399633,7.99934,98.48652985784561,0.5408385368200044,18.075,4.39625,1.9481249999999999,8.145,18.04375,43.5
2,473.4848,18.0954,2.227854,4.399534,8.99933,98.2114089841246,0.7210509593799941,18.13125,4.39625,2.19375,9.16875,18.09375,46.0
2,473.61940000000004,18.15192,2.474115,4.3994,9.99985,97.95903198537478,0.9165974607999914,18.1875,4.3950000000000005,2.4375,10.188749999999999,18.15625,48.5

FSW_SET,Frequency (kHz),VIN (V),IIN (A),VOUT (V),IOUT (A),Efficiency (%),PLoss (W),VIN_ADC,VOUT_ADC,IIN_ADC,IBAT_ADC,VEXT_ADC,TDIE_ADC
3,557.9423,17.66468,0.2565764,4.400938,0.999146,97.01786709386946,0.13516040260399986,17.70625,4.39625,0.230625,1.05375,17.66875,37.5
3,558.098,17.7105,0.5031667,4.399076,1.99887,98.67412894245965,0.11815279622999952,17.75,4.3950000000000005,0.47625,2.07375,17.712500000000002,37.5
3,557.9112,17.76625,0.7500992,4.399682,2.99927,99.01987640577568,0.13061567985999822,17.806250000000002,4.39625,0.7218749999999999,3.0862499999999997,17.76875,37.5
3,558.098,17.81886,0.9963725,4.399479,3.99951,99.10746959625591,0.15846183005999848,17.85625,4.3950000000000005,0.9674999999999999,4.10625,17.81875,38.0
3,558.628,17.87107,1.243017,4.399118,4.99977,99.01204113431031,0.21946561533000164,17.90625,4.3950000000000005,1.21125,5.115,17.875,39.0
3,559.0444,17.92768,1.489533,4.399801,5.99976,98.85364587784122,0.3061209256799948,17.96875,4.39625,1.456875,6.135,17.931250000000002,40.5
3,559.2216,17.97986,1.736111,4.39927,6.99962,98.64868170799812,0.42181444706000093,18.01875,4.39625,1.704375,7.083749999999999,17.9875,42.0
3,559.6596999999999,18.03612,1.98262,4.399627,7.99947,98.4225184438314,0.5640880367100038,18.075,4.3950000000000005,1.95,8.15625,18.04375,43.5
3,560.6638,18.09193,2.229265,4.39973,8.99947,98.17397215407246,0.7364681883499955,18.13125,4.39625,2.19375,9.165,18.09375,46.0
3,560.601,18.14836,2.47549,4.399831,9.99997,97.93459474989945,0.927905691330011,18.181250000000002,4.3950000000000005,2.4375,10.147499999999999,18.15625,48.5

FSW_SET,Frequency (kHz),VIN (V),IIN (A),VOUT (V),IOUT (A),Efficiency (%),PLoss (W),VIN_ADC,VOUT_ADC,IIN_ADC,IBAT_ADC,VEXT_ADC,TDIE_ADC
4,642.5084,17.66127,0.2582491,4.400355,0.999146,96.3953139611869,0.1644099855269996,17.69375,4.39625,0.23249999999999998,1.0574999999999999,17.6625,37.5
4,641.5191,17.7106,0.5049272,4.39969,1.99901,98.3501446912514,0.14753936142000157,17.75,4.3950000000000005,0.47812499999999997,2.08125,17.712500000000002,37.5
4,641.8485,17.76288,0.7515645,4.399718,2.99927,98.8463790530839,0.15400781989999857,17.8,4.39625,0.72375,3.105,17.76875,37.5
4,642.1783,17.81545,0.9978918,4.399863,3.99951,98.98415736477006,0.18059540117999973,17.85625,4.3950000000000005,0.969375,4.109999999999999,17.81875,38.5
4,642.4258000000001,17.86752,1.244663,4.399817,4.99989,98.918838158825,0.24044002563000433,17.90625,4.3950000000000005,1.2149999999999999,5.12625,17.868750000000002,39.0
4,642.8388,17.91721,1.491046,4.399083,5.99989,98.7970594128042,0.3213702007900032,17.95625,4.3950000000000005,1.45875,6.11625,17.91875,40.5
4,643.4592,17.97286,1.737729,4.399803,6.99962,98.607160871129,0.4350109600799996,18.01875,4.39625,1.70625,7.125,17.975,42.0
4,643.5421,18.02552,1.984153,4.399682,7.9996,98.40713755958654,0.5696934573600032,18.0625,4.3950000000000005,1.9481249999999999,8.1525,18.03125,44.0
4,644.9948,18.07855,2.230728,4.399533,8.99947,98.17780086831058,0.7348624368899976,18.118750000000002,4.39625,2.1956249999999997,9.157499999999999,18.08125,46.0
4,645.0781,18.13088,2.477021,4.399052,10.0001,97.95235154470735,0.919610603280006,18.16875,4.3950000000000005,2.439375,10.1775,18.1375,48.5

FSW_SET,Frequency (kHz),VIN (V),IIN (A),VOUT (V),IOUT (A),Efficiency (%),PLoss (W),VIN_ADC,VOUT_ADC,IIN_ADC,IBAT_ADC,VEXT_ADC,TDIE_ADC
5,724.9003,17.66118,0.2597504,4.400559,0.999283,95.85624349749108,0.19009477027499955,17.70625,4.39625,0.234375,1.05,17.66875,38.0
5,724.3752,17.70698,0.5065126,4.399358,1.99915,98.06181687706447,0.17383193224799953,17.743750000000002,4.3950000000000005,0.958125,2.0775,17.712500000000002,38.0
5,724.8478,17.75927,0.7531658,4.399771,2.99927,98.6574611560029,0.17957362979599978,17.8,4.3950000000000005,0.725625,3.07875,17.7625,38.0
5,725.6894,17.80838,0.9994594,4.399375,3.99951,98.857175635144,0.2034084835220007,17.85,4.3950000000000005,0.969375,4.09875,17.8125,38.5
5,725.4262,17.8605,1.24627,4.399686,4.99989,98.82717445577181,0.2610593004599977,17.90625,4.39625,1.216875,5.1075,17.868750000000002,39.5
5,725.0755,17.91019,1.492799,4.399325,5.99976,98.72301184313422,0.34141955980999583,17.95,4.39625,1.4606249999999998,6.12,17.9125,40.5
5,725.9528,17.96298,1.739306,4.399731,6.99962,98.57032906603928,0.44667378966000015,18.00625,4.3950000000000005,1.708125,7.14,17.96875,42.0
5,726.5858000000001,18.01175,1.985779,4.398997,7.99974,98.3881317362453,0.5765226424699961,18.05,4.3950000000000005,1.951875,8.14875,18.01875,44.0
5,727.802,18.0645,2.232537,4.39914,8.99959,98.16708546782463,0.7392082838999983,18.10625,4.3950000000000005,2.1956249999999997,9.16875,18.06875,46.0
5,728.5444,18.11676,2.478859,4.399015,10.0001,97.95518526020072,0.9183036753399918,18.15625,4.39375,2.4431249999999998,10.1775,18.125,48.5

FSW_SET,Frequency (kHz),VIN (V),IIN (A),VOUT (V),IOUT (A),Efficiency (%),PLoss (W),VIN_ADC,VOUT_ADC,IIN_ADC,IBAT_ADC,VEXT_ADC,TDIE_ADC
6,810.1102,17.66126,0.2613612,4.400911,0.999283,95.27265883915466,0.2182125602989995,17.7,4.39625,0.234375,1.04625,17.66875,38.5
6,810.1758000000001,17.70353,0.5080978,4.399273,1.99915,97.77303778230423,0.20031802728400194,17.743750000000002,4.3950000000000005,0.481875,2.06625,17.70625,38.0
6,809.8259,17.75213,0.7546709,4.399213,2.99927,98.48780989247152,0.20258834950700155,17.79375,4.3950000000000005,0.7274999999999999,3.0825,17.75,38.5
6,810.3071,17.80126,1.001032,4.399257,3.99951,98.73870262797665,0.22475853624999687,17.84375,4.3950000000000005,0.973125,4.1025,17.806250000000002,39.0
6,810.767,17.85075,1.247853,4.399313,4.99989,98.74734248279097,0.27903086418000456,17.8875,4.39625,1.216875,5.11125,17.85625,40.0
6,811.5566,17.89943,1.494423,4.399132,5.99989,98.67281940244705,0.35501178341000283,17.9375,4.3950000000000005,1.464375,6.1425,17.90625,41.0
6,811.4907,17.94889,1.740824,4.399086,6.99974,98.54892689880025,0.45340024771999765,17.9875,4.39375,1.708125,7.15125,17.95625,42.5
6,812.2817,18.00122,1.987343,4.399626,7.99974,98.38227545649666,0.5787344612200016,18.04375,4.39625,1.951875,8.1525,18.00625,44.0
6,813.2065,18.05024,2.234079,4.399232,8.99959,98.17888219235807,0.7343778140800055,18.087500000000002,4.39625,2.20125,9.1725,18.056250000000002,46.0
6,814.4649000000001,18.10252,2.48043,4.399482,10.0002,97.98153065051255,0.9063337871999977,18.14375,4.39625,2.4431249999999998,10.1775,18.10625,48.5

FSW_SET,Frequency (kHz),VIN (V),IIN (A),VOUT (V),IOUT (A),Efficiency (%),PLoss (W),VIN_ADC,VOUT_ADC,IIN_ADC,IBAT_ADC,VEXT_ADC,TDIE_ADC
7,889.0469,17.66121,0.2629569,4.400811,0.99942,94.70561483128532,0.24587850222899998,17.70625,4.39625,0.238125,1.0574999999999999,17.66875,38.5
7,889.6006,17.70349,0.5094124,4.399329,1.99915,97.52218441558666,0.2234587589260002,17.743750000000002,4.3950000000000005,0.481875,2.05125,17.70625,38.0
7,889.3632,17.75215,0.7562588,4.399474,2.99927,98.2867373620214,0.23000927244000202,17.79375,4.39625,0.7274999999999999,3.0749999999999997,17.75625,38.5
7,889.2841,17.80116,1.002455,4.399671,3.99965,98.61182599919907,0.24771773265000263,17.84375,4.3950000000000005,0.973125,4.095,17.806250000000002,39.0
7,889.6006,17.84718,1.249178,4.399037,4.99989,98.65614327406485,0.2996035121100036,17.8875,4.39625,1.21875,5.11125,17.85,40.0
7,890.1285,17.89595,1.495662,4.399023,5.99989,98.60780769972095,0.372638261430005,17.94375,4.3950000000000005,1.46625,6.12,17.900000000000002,41.0
7,890.948,17.94544,1.742285,4.399122,6.99974,98.48602434513204,0.47336070212000436,17.9875,4.3950000000000005,1.71,7.14375,17.95,42.5
7,892.3791,17.99766,1.988618,4.399757,7.9996,98.33985268660442,0.5941745366799935,18.0375,4.39625,1.9537499999999999,8.16,18.0,44.5
7,892.4586999999999,18.04668,2.23538,4.399474,8.99959,98.14649650055975,0.7477253227400027,18.08125,4.3950000000000005,2.20125,9.157499999999999,18.05,46.5
7,893.7615,18.09887,2.481765,4.399744,10.0002,97.95440646114375,0.9188221567500108,18.1375,4.3975,2.446875,10.17375,18.10625,49.0

FSW_SET,Frequency (kHz),VIN (V),IIN (A),VOUT (V),IOUT (A),Efficiency (%),PLoss (W),VIN_ADC,VOUT_ADC,IIN_ADC,IBAT_ADC,VEXT_ADC,TDIE_ADC
8,956.0229,17.66117,0.2642216,4.400272,0.99942,94.24097488096686,0.2687427530319999,17.70625,4.39625,0.23625,1.0574999999999999,17.66875,38.5
8,956.0229,17.70703,0.5108361,4.399571,1.99915,97.23629628961586,0.2499877831329993,17.743750000000002,4.3950000000000005,0.481875,2.0625,17.70625,38.5
8,955.6879,17.75577,0.7573019,4.399595,2.99927,98.13404629336965,0.2509050613129986,17.79375,4.39625,0.7274999999999999,3.0974999999999997,17.7625,39.0
8,956.7242,17.80476,1.003672,4.399671,3.99965,98.4723400172353,0.2729949635700031,17.84375,4.3950000000000005,0.975,4.0874999999999995,17.8125,39.5
8,956.7547,17.85423,1.250488,4.399792,5.00003,98.53354370304982,0.32740837048000415,17.89375,4.3950000000000005,1.2206249999999998,5.1075,17.8625,40.5
8,957.8544,17.90284,1.496965,4.399625,5.99989,98.49753743286989,0.40265883935000346,17.94375,4.3950000000000005,1.46625,6.135,17.90625,41.5
8,958.589,17.9525,1.743482,4.399602,6.99974,98.39043851383951,0.503790501520001,17.993750000000002,4.3950000000000005,1.71,7.14,17.962500000000002,43.0
8,958.589,18.00117,1.989822,4.39922,7.99974,98.25091231339051,0.6265078889399973,18.04375,4.3950000000000005,1.955625,8.1675,18.00625,45.0
8,960.338,18.05383,2.23663,4.399644,8.99959,98.0565855802115,0.7847456469400029,18.09375,4.3950000000000005,2.20125,9.161249999999999,18.0625,47.0
8,960.7994,18.106,2.482972,4.399769,10.0002,97.86879092698788,0.9581210782000085,18.150000000000002,4.39625,2.446875,10.188749999999999,18.1125,49.5

FSW_SET,Frequency (kHz),VIN (V),IIN (A),VOUT (V),IOUT (A),Efficiency (%),PLoss (W),VIN_ADC,VOUT_ADC,IIN_ADC,IBAT_ADC,VEXT_ADC,TDIE_ADC
9,1032.6,17.66484,0.2655355,4.40046,0.999283,93.74633058711836,0.2933372516399997,17.70625,4.3950000000000005,0.24187499999999998,1.0425,17.66875,39.0
9,1032.0,17.71062,0.5120977,4.399556,1.99901,96.96996224013542,0.27481132801399966,17.75625,4.3950000000000005,0.485625,2.0625,17.71875,39.0
9,1033.3,17.75923,0.7587005,4.399341,2.99939,97.93232456683711,0.27859727862499994,17.8,4.3950000000000005,0.729375,3.0862499999999997,17.76875,39.5
9,1032.6,17.80845,1.005191,4.399207,3.99965,98.29279257149351,0.30560538640000345,17.85,4.3950000000000005,0.9768749999999999,4.0649999999999995,17.81875,40.0
9,1033.0,17.86042,1.251791,4.399775,5.00003,98.39648524961585,0.35850601897000445,17.90625,4.3950000000000005,1.2225,5.0737499999999995,17.868750000000002,41.0
9,1035.1,17.91008,1.498419,4.399623,5.99989,98.36213686483768,0.4395501220500009,17.95625,4.3950000000000005,1.46625,6.123749999999999,17.91875,42.0
9,1034.9,17.95954,1.744895,4.39932,6.99974,98.26592685682,0.5434153715000001,18.0,4.3950000000000005,1.711875,7.10625,17.962500000000002,43.5
9,1035.9,18.01188,1.991282,4.399575,7.99974,98.12841517981286,0.6712763196600093,18.05,4.39625,1.9575,8.15625,18.01875,45.5
9,1036.5,18.06436,2.238002,4.399753,8.99959,97.94177503635969,0.8321007074500031,18.1,4.3950000000000005,2.20125,9.13875,18.06875,47.5
9,1037.6,18.1167,2.484483,4.399574,10.0002,97.74716954645349,1.0140132513000069,18.150000000000002,4.3950000000000005,2.450625,10.188749999999999,18.125,50.0

FSW_SET,Frequency (kHz),VIN (V),IIN (A),VOUT (V),IOUT (A),Efficiency (%),PLoss (W),VIN_ADC,VOUT_ADC,IIN_ADC,IBAT_ADC,VEXT_ADC,TDIE_ADC
10,1111.1,17.66828,0.2670104,4.400128,0.99942,93.21609292861866,0.32003858435199994,17.712500000000002,4.39625,0.24187499999999998,1.0687499999999999,17.66875,39.5
10,1111.1,17.71771,0.5137697,4.399647,1.99915,96.62447279838294,0.30726825133699975,17.75625,4.3950000000000005,0.485625,2.07375,17.725,39.5
10,1111.5,17.76641,0.7602515,4.398996,2.99939,97.68537327405035,0.3126352396749983,17.806250000000002,4.39375,0.73125,3.07875,17.76875,40.0
10,1112.1,17.81892,1.006621,4.399279,3.99965,98.09709127731108,0.3413228169699991,17.85625,4.39625,0.9768749999999999,4.109999999999999,17.825,40.5
10,1113.3,17.87111,1.253307,4.399412,5.00003,98.21057457643974,0.40079527841000484,17.90625,4.3950000000000005,1.2225,5.1075,17.88125,41.5
10,1113.3,17.92426,1.499703,4.399645,5.99989,98.2006649333503,0.48368045573000273,17.96875,4.3950000000000005,1.468125,6.12,17.931250000000002,42.5
10,1113.3,17.97649,1.746238,4.399557,6.99974,98.10305352644502,0.5954748294400005,18.01875,4.39625,1.711875,7.1362499999999995,17.98125,44.0
10,1115.8,18.029,1.992749,4.399367,7.9996,97.95671802328671,0.7340954678000031,18.06875,4.3950000000000005,1.9575,8.145,18.0375,46.0
10,1115.8,18.08487,2.239508,4.399748,8.99959,97.76480031755742,0.9052829406399923,18.125,4.3950000000000005,2.203125,9.17625,18.09375,48.5
10,1117.8,18.13793,2.485671,4.39921,10.0002,97.57802254244979,1.0919467590300016,18.175,4.3950000000000005,2.44875,10.18125,18.14375,51.0

FSW_SET,Frequency (kHz),VIN (V),IIN (A),VOUT (V),IOUT (A),Efficiency (%),PLoss (W),VIN_ADC,VOUT_ADC,IIN_ADC,IBAT_ADC,VEXT_ADC,TDIE_ADC
11,1184.3,17.67545,0.2685333,4.400796,0.99942,92.66391502489398,0.34820337916499966,17.71875,4.39625,0.24375,1.0725,17.681250000000002,40.0
11,1185.6,17.72488,0.5151134,4.39979,1.99915,96.33656974113462,0.33448302289199994,17.76875,4.39625,0.485625,2.06625,17.73125,40.0
11,1186.2,17.77701,0.7617154,4.399475,2.99927,97.44621275648205,0.34580889970400186,17.81875,4.3950000000000005,0.735,3.0862499999999997,17.78125,40.5
11,1186.0,17.82974,1.008158,4.399215,3.99965,97.88667247409464,0.37987474417000655,17.875,4.3950000000000005,0.97875,4.095,17.84375,41.0
11,1186.8,17.88537,1.254807,4.399669,4.99989,98.01794487534765,0.4448264371800015,17.931250000000002,4.3950000000000005,1.224375,5.1225,17.89375,42.0
11,1187.0,17.93849,1.501179,4.399364,5.99989,98.02002786208341,0.5331844097500031,17.98125,4.3950000000000005,1.47,6.13875,17.94375,43.5
11,1188.2,17.99422,1.747805,4.399621,6.99988,97.92190592967452,0.653568641619998,18.03125,4.3950000000000005,1.711875,7.14375,18.0,45.0
11,1189.9,18.05048,1.994191,4.399789,8.0,97.78366918598009,0.7977927616800002,18.09375,4.3950000000000005,1.9593749999999999,8.14875,18.05,47.0
11,1190.5,18.10628,2.240892,4.399649,8.99959,97.5866919781238,0.979180857850011,18.14375,4.3950000000000005,2.20125,9.161249999999999,18.1125,49.0
11,1192.9,18.16269,2.486999,4.399371,10.0001,97.3955578583831,1.1764419302099967,18.2,4.39375,2.446875,10.185,18.16875,52.0

FSW_SET,Frequency (kHz),VIN (V),IIN (A),VOUT (V),IOUT (A),Efficiency (%),PLoss (W),VIN_ADC,VOUT_ADC,IIN_ADC,IBAT_ADC,VEXT_ADC,TDIE_ADC
12,1258.2,17.67906,0.269739,4.400656,0.99942,92.22794762813692,0.37062834582000015,17.71875,4.3950000000000005,0.24375,1.0425,17.681250000000002,40.5
12,1257.2,17.72832,0.5164257,4.399164,1.99901,96.05272500933063,0.3613872381840011,17.76875,4.39375,0.489375,2.0925,17.73125,40.5
12,1257.1,17.78405,0.7628712,4.399302,2.99927,97.25623414879891,0.3722450548200005,17.825,4.3950000000000005,0.733125,3.0825,17.7875,41.0
12,1258.0,17.8403,1.00941,4.39948,3.99965,97.71327749665828,0.4117970409999998,17.88125,4.3950000000000005,0.97875,4.09875,17.84375,41.5
12,1258.5,17.89608,1.25601,4.399504,5.00003,97.86453059152811,0.48000345568000213,17.9375,4.3950000000000005,1.22625,5.1187499999999995,17.90625,42.5
12,1258.2,17.95276,1.50238,4.399605,5.99989,97.86918156896625,0.5747215253500038,17.993750000000002,4.39375,1.47,6.13125,17.962500000000002,44.0
