FSW_SET,Frequency (kHz),VIN (V),IIN (A),VOUT (V),IOUT (A),Efficiency (%),PLoss (W),VIN_ADC,VOUT_ADC,IIN_ADC,IBAT_ADC,VEXT_ADC,TDIE_ADC
3,815.2174,17.66121,0.2545693,4.399572,0.999146,97.77164013032036,0.10018710134099962,17.675,4.39,0.24187499999999998,0.98625,17.6375,32.0
3,814.8041,17.71775,0.5017487,4.399245,1.99901,98.92323047614302,0.09572328197500113,17.7375,4.38875,0.49874999999999997,1.99875,17.7,32.5
3,815.162,17.77712,0.7492232,4.399533,2.99899,99.06242981178144,0.12487526151400097,17.79375,4.38875,0.7537499999999999,3.0149999999999997,17.75625,33.0
3,815.2949,17.83332,0.9961493,4.399064,3.99951,99.03995415961776,0.17054877603600005,17.85,4.39,1.0106249999999999,4.0424999999999995,17.8125,34.0
3,816.3265,17.89261,1.243212,4.399332,4.99989,98.8845173523646,0.24813138984000105,17.9125,4.39,1.2674999999999998,5.06625,17.868750000000002,35.5
3,817.4498000000001,17.95272,1.490574,4.399737,5.99962,98.64308859211386,0.36310756134000144,17.96875,4.39,1.520625,6.06375,17.9375,36.5
3,817.3199000000001,18.0087,1.737642,4.399036,6.99962,98.39868869205505,0.5010931190800036,18.025000000000002,4.39125,1.7774999999999999,7.109999999999999,17.9875,38.5
3,817.8368,18.06849,1.98464,4.399229,7.99947,98.13731771585215,0.6679475849700012,18.087500000000002,4.39,2.034375,8.129999999999999,18.05,40.5
3,819.1853000000001,18.12793,2.232044,4.399192,8.99919,97.84201113730245,0.8731727344399971,18.14375,4.38875,2.2893749999999997,9.135,18.1125,43.0
3,820.2052,18.1879,2.479184,4.399219,9.99985,97.56133844441057,1.0996205564499917,18.212500000000002,4.39125,2.54625,10.17375,18.16875,46.0
3,820.787,18.2504,2.726041,4.399737,11.0,97.27799954192069,1.354231666399997,18.26875,4.39,2.799375,11.178749999999999,18.23125,49.5
3,821.2675,18.30978,2.973247,4.399297,11.9997,96.97048229402169,1.6492542447600016,18.325,4.39,3.054375,12.19125,18.29375,53.0
3,823.3013000000001,18.37323,3.220199,4.399708,13.0001,96.67236085710663,1.9688129019699971,18.39375,4.39125,3.31125,13.233749999999999,18.35625,57.0

FSW_SET,Frequency (kHz),VIN (V),IIN (A),VOUT (V),IOUT (A),Efficiency (%),PLoss (W),VIN_ADC,VOUT_ADC,IIN_ADC,IBAT_ADC,VEXT_ADC,TDIE_ADC
4,937.8883000000001,17.66483,0.2553236,4.400733,0.998093,97.3857937056482,0.11790718681900003,17.681250000000002,4.39125,0.24375,0.00375,17.64375,36.5
4,937.6905,17.71417,0.5025156,4.399123,1.99901,98.78948355676229,0.10775589782199724,17.7375,4.39,0.49874999999999997,1.99125,17.69375,36.5
4,937.6025999999999,17.7699,0.7496722,4.399093,2.99913,99.03804169594953,0.1281482376900005,17.7875,4.39,0.755625,3.0149999999999997,17.75,36.5
4,938.0686999999999,17.82623,0.9967013,4.399166,3.99939,99.02379725485062,0.17344610635899826,17.84375,4.39,1.0106249999999999,4.05,17.806250000000002,37.0
4,939.5061999999999,17.88202,1.243712,4.39906,4.99977,98.89481238174015,0.2457946420399999,17.900000000000002,4.39,1.265625,5.047499999999999,17.8625,38.0
4,938.3064,17.93873,1.490855,4.399119,5.99962,98.68754717079285,0.35100297937000136,17.95625,4.39,1.520625,6.101249999999999,17.91875,39.5
4,940.4757,17.998,1.73797,4.399785,6.99948,98.45339771506264,0.4837769482000063,18.0125,4.39125,1.779375,7.0874999999999995,17.975,41.0
4,941.7156,18.05425,1.98477,4.399546,8.00105,98.23476452750681,0.6325462491999971,18.075,4.39125,2.0324999999999998,8.07375,18.03125,43.0
4,941.7748,18.11007,2.232093,4.399095,8.99947,97.93723978652261,0.8338369968599935,18.125,4.39,2.2875,9.116249999999999,18.09375,45.0
4,942.8562,18.17005,2.479252,4.399521,9.99997,97.6623786099094,1.0530547882299999,18.1875,4.39,2.544375,10.125,18.150000000000002,48.0
4,944.1088000000001,18.22951,2.726075,4.399655,11.0,97.38644496752129,1.2988064732499964,18.25,4.39125,2.80125,11.216249999999999,18.212500000000002,51.0
4,945.3782,18.28926,2.973312,4.399688,11.9998,97.08659507267973,1.5843001667199914,18.306250000000002,4.39125,3.058125,12.22125,18.275000000000002,54.5
4,945.9843000000001,18.34868,3.220034,4.399403,13.0001,96.79995503937131,1.890694514819998,18.3625,4.39125,3.31125,13.26,18.33125,58.0

FSW_SET,Frequency (kHz),VIN (V),IIN (A),VOUT (V),IOUT (A),Efficiency (%),PLoss (W),VIN_ADC,VOUT_ADC,IIN_ADC,IBAT_ADC,VEXT_ADC,TDIE_ADC
5,1061.8,17.66481,0.2563699,4.400553,0.999146,97.08680414946794,0.13193064548099986,17.6875,4.39,0.24187499999999998,0.96,17.6375,38.0
5,1061.5,17.71416,0.503554,4.399065,1.99887,98.57761710471638,0.12687706808999977,17.7375,4.38875,0.49874999999999997,1.99125,17.69375,38.0
5,1062.6,17.76984,0.7508902,4.399149,2.99899,98.87437146590806,0.15019485205799654,17.7875,4.39,0.7537499999999999,3.01875,17.75,38.0
5,1063.1,17.82611,0.9978777,4.399341,3.99939,98.91165829204152,0.1935972447570009,17.84375,4.38875,1.0125,4.035,17.806250000000002,38.5
5,1064.1,17.88192,1.244994,4.399371,4.99977,98.80051490856418,0.2670399638099994,17.900000000000002,4.39,1.2674999999999998,5.069999999999999,17.8625,39.5
5,1064.3,17.93863,1.491948,4.39957,5.99962,98.62590862727563,0.3677549878400015,17.95625,4.39125,1.524375,6.075,17.91875,40.5
5,1064.7,17.99441,1.738792,4.399479,6.99962,98.42161054665685,0.49385495473999086,18.0125,4.39,1.779375,7.10625,17.975,42.0
5,1065.4,18.05057,1.986154,4.399383,7.99934,98.16170397783603,0.6590514005600028,18.06875,4.39,2.03625,8.10375,18.03125,44.0
5,1029.7,18.10642,2.232963,4.399079,8.99933,97.91693746074434,0.8422023053899892,18.125,4.39125,2.29125,9.1275,18.087500000000002,46.0
5,1030.6,18.16656,2.480183,4.399669,9.99997,97.64775830157458,1.0598352705499963,18.1875,4.39,2.5481249999999998,10.1625,18.150000000000002,49.0
5,1032.4,18.22239,2.727377,4.399043,11.0,97.36444245763872,1.3098543710300063,18.2375,4.39125,2.803125,11.15625,18.20625,51.5
5,1034.0,18.2822,2.974663,4.399218,12.0,97.07122325898332,1.5927678986000018,18.3,4.39,3.058125,12.2175,18.26875,55.0
5,1034.8,18.34157,3.221374,4.399054,13.0001,96.78951850573675,1.8969148117800074,18.35625,4.38875,3.313125,13.241249999999999,18.325,59.0

FSW_SET,Frequency (kHz),VIN (V),IIN (A),VOUT (V),IOUT (A),Efficiency (%),PLoss (W),VIN_ADC,VOUT_ADC,IIN_ADC,IBAT_ADC,VEXT_ADC,TDIE_ADC
6,1148.1,17.66484,0.2575812,4.400274,0.999283,96.63720248804827,0.1530116814660012,17.6875,4.39,0.24562499999999998,0.9824999999999999,17.650000000000002,39.0
6,1147.1,17.71774,0.5046859,4.399633,1.99901,98.35624083886904,0.14698319453600206,17.7375,4.39,0.500625,1.99875,17.7,38.5
6,1148.0,17.7735,0.7518626,4.399693,2.99899,98.73836930124358,0.1685946110300005,17.79375,4.39,0.7575,3.01875,17.75625,39.0
6,1147.0,17.82985,0.9987157,4.399862,3.99939,98.81963488299857,0.2101870394650014,17.85,4.39125,1.0125,4.0275,17.806250000000002,39.5
6,1148.9,17.88559,1.246047,4.39987,4.99977,98.70795997190548,0.28794773283000197,17.90625,4.39125,1.2674999999999998,5.04,17.868750000000002,40.0
6,1149.7,17.93863,1.493226,4.399154,5.99962,98.53218059411984,0.3931763988999961,17.962500000000002,4.39,1.5225,6.0675,17.91875,41.5
6,1150.9,17.99449,1.740568,4.399066,6.99962,98.31151845667127,0.5288431153999937,18.0125,4.39,1.779375,7.09875,17.975,43.0
6,1152.4,18.05421,1.987345,4.399864,7.9996,98.09700951993048,0.6827919180500004,18.075,4.39,2.034375,8.145,18.0375,45.0
6,1152.3,18.10998,2.234537,4.399592,8.99947,97.84166088464676,0.8734241630199975,18.13125,4.39,2.2893749999999997,9.1425,18.09375,47.0
6,1153.3,18.16666,2.481691,4.399373,9.99997,97.58131994170982,1.090438603250007,18.181250000000002,4.39,2.54625,10.17,18.150000000000002,49.5
6,1154.4,18.22595,2.729015,4.399677,11.0,97.30101754602923,1.3424439392500105,18.243750000000002,4.39125,2.80125,11.20125,18.212500000000002,52.5
6,1157.0,18.28215,2.97608,4.399074,12.0,97.02209418664813,1.620252972000003,18.3,4.39,3.058125,12.1875,18.2625,56.0
6,1159.7,18.34147,3.222933,4.399052,13.0002,96.74392703659088,1.9247731211100003,18.35625,4.39,3.313125,13.2225,18.325,59.5

FSW_SET,Frequency (kHz),VIN (V),IIN (A),VOUT (V),IOUT (A),Efficiency (%),PLoss (W),VIN_ADC,VOUT_ADC,IIN_ADC,IBAT_ADC,VEXT_ADC,TDIE_ADC
7,1265.8,17.66481,0.2588219,4.400514,0.999283,96.17936702604025,0.17468085587699989,17.6875,4.39125,0.24375,0.98625,17.64375,39.5
7,1265.9,17.71418,0.5058659,4.399251,1.99901,98.1380105541525,0.16685286695199864,17.73125,4.39,0.49874999999999997,1.99125,17.7,39.5
7,1265.7,17.76999,0.7532374,4.399563,2.99899,98.57470807613498,0.19077562425600014,17.7875,4.39,0.7575,3.0075,17.75,39.5
7,1266.8,17.82264,1.000507,4.399096,3.99939,98.66543377082091,0.2379755270399997,17.837500000000002,4.38875,1.0125,4.03875,17.8,40.0
7,1267.3,17.87839,1.247909,4.399391,4.99989,98.592002607702,0.3141327195199999,17.900000000000002,4.39,1.27125,5.0625,17.8625,41.0
7,1267.0,17.93513,1.494946,4.399858,5.99962,98.45377438192526,0.41457479902000216,17.95,4.39,1.5262499999999999,6.078749999999999,17.91875,42.0
7,1268.2,17.98732,1.7416,4.399183,6.99962,98.29504250362338,0.5341072015399995,18.0125,4.39,1.78125,7.09125,17.96875,43.5
7,1270.0,18.04354,1.988882,4.399404,7.9996,98.06891107774304,0.6929996838800037,18.0625,4.39,2.03625,8.11125,18.025000000000002,45.5
7,1270.9,18.09943,2.23596,4.399462,8.99947,97.83349678498973,0.8767752176600041,18.1125,4.39125,2.293125,9.13125,18.075,47.5
7,1271.7,18.15589,2.482783,4.399552,9.99997,97.60023118721894,1.0817470284300015,18.16875,4.39125,2.54625,10.155,18.1375,50.0
7,1273.8,18.21172,2.729831,4.399339,11.0001,97.34134351740525,1.32174888542,18.23125,4.39,2.806875,11.205,18.19375,53.0
7,1315.4,18.2681,2.977578,4.399065,12.0,97.04766663213856,1.605912661799998,18.2875,4.38875,3.0618749999999997,12.206249999999999,18.25625,56.0
7,651.8905,18.32741,3.224677,4.39936,13.0002,96.77255778197089,1.9074176245700016,18.34375,4.39,3.315,13.229999999999999,18.3125,60.0

FSW_SET,Frequency (kHz),VIN (V),IIN (A),VOUT (V),IOUT (A),Efficiency (%),PLoss (W),VIN_ADC,VOUT_ADC,IIN_ADC,IBAT_ADC,VEXT_ADC,TDIE_ADC
8,1369.6,17.66477,0.2599585,4.40069,0.999146,95.74976592351126,0.1951753013049995,17.681250000000002,4.39125,0.24937499999999999,0.9824999999999999,17.64375,40.0
8,1368.1,17.71411,0.5070313,4.39966,1.99901,97.92193245978773,0.18664388504300078,17.7375,4.39,0.5025,1.99125,17.6875,40.0
8,1369.2,17.76639,0.7542504,4.399338,2.99899,98.45722863605978,0.2067360954359998,17.7875,4.39,0.759375,3.0149999999999997,17.75,40.0
8,1370.3,17.81907,1.001442,4.399115,3.99939,98.59348913982114,0.25098855908999695,17.837500000000002,4.38875,1.0125,4.00875,17.8,40.5
8,1372.4,17.87482,1.248575,4.399653,4.99989,98.56496291206345,0.32027234333000365,17.8875,4.39,1.27125,5.05125,17.85,41.5
8,1371.1,17.92804,1.495753,4.399499,5.99962,98.43153831831098,0.4205974237400021,17.95,4.39,1.5262499999999999,6.07125,17.90625,42.5
8,701.3705,17.98026,1.74277,4.39906,6.99962,98.26487499287587,0.5437093629999978,18.0,4.39,1.78125,7.0874999999999995,17.962500000000002,44.0
8,1374.3,18.03651,1.989803,4.399521,7.9996,98.06433295101323,0.6946935159300054,18.056250000000002,4.39125,2.04,8.1225,18.01875,46.0
8,1414.9,18.09232,2.237062,4.399795,8.99947,97.83113547169856,0.8778184551899955,18.1125,4.39125,2.295,9.135,18.075,48.0
8,1417.1,18.14528,2.484199,4.399246,10.0001,97.5961158645641,1.0835865061199996,18.16875,4.39125,2.55,10.18125,18.125,50.5
8,1417.4,18.2012,2.7312,4.399285,11.0001,97.34759027879137,1.3185425114999987,18.212500000000002,4.39,2.803125,11.174999999999999,18.181250000000002,53.5
8,1420.3,18.25745,2.978375,4.399277,12.0,97.0829705456812,1.5862086437500054,18.275000000000002,4.39,3.06,12.195,18.243750000000002,56.5
8,1421.9,18.31676,3.225367,4.399825,13.0003,96.81908728875935,1.8792283034199997,18.337500000000002,4.39125,3.316875,13.237499999999999,18.306250000000002,60.5

FSW_SET,Frequency (kHz),VIN (V),IIN (A),VOUT (V),IOUT (A),Efficiency (%),PLoss (W),VIN_ADC,VOUT_ADC,IIN_ADC,IBAT_ADC,VEXT_ADC,TDIE_ADC
9,1485.8,17.66135,0.2610539,4.400159,0.999283,95.36802445379965,0.2135602107679988,17.675,4.39,0.24562499999999998,0.97125,17.64375,40.5
9,1485.2,17.71074,0.5081896,4.399457,1.99901,97.71282363718883,0.2058553387340023,17.73125,4.39,0.50625,1.99125,17.6875,40.5
9,1483.8,17.76282,0.7554597,4.399441,2.99913,98.32627172268434,0.22459918202399898,17.78125,4.39,0.759375,3.01125,17.743750000000002,40.5
9,1484.0,17.81558,1.002521,4.399541,3.99951,98.51916265062175,0.26448485226999807,17.837500000000002,4.39125,1.0162499999999999,4.035,17.8,41.0
9,1486.1,17.86774,1.249663,4.399493,4.99989,98.51458792718444,0.33167251585000557,17.8875,4.39,1.273125,5.05125,17.85,42.0
9,1485.1,17.92096,1.49693,4.399659,5.99962,98.39657889243347,0.43014052322000396,17.9375,4.39,1.528125,6.075,17.900000000000002,43.0
9,1487.0,17.97322,1.743915,4.399525,6.99962,98.24920610513357,0.5487647758000023,17.993750000000002,4.39125,1.7831249999999998,7.095,17.95625,44.5
9,1489.1,18.02588,1.990797,4.399436,7.9996,98.07127528834181,0.6921396007600009,18.05,4.39,2.04,8.11125,18.0125,46.0
9,1489.8,18.07894,2.238196,4.39935,8.99947,97.84403841805943,0.872392847739988,18.1,4.39,2.296875,9.108749999999999,18.0625,48.0
9,1489.8,18.13484,2.485154,4.399819,10.0001,97.62748898597421,1.0692401834600105,18.150000000000002,4.39,2.551875,10.147499999999999,18.1125,50.5
9,1493.5,18.18779,2.732094,4.399456,11.0001,97.3912731519395,1.296295986660006,18.2,4.39125,2.8049999999999997,11.19,18.175,53.5
9,1494.2,18.24366,2.979244,4.399628,11.9998,97.13414501240128,1.5576585186399896,18.2625,4.39,3.0637499999999998,12.209999999999999,18.225,56.5
9,1494.5,18.29985,3.226217,4.399695,13.0002,96.87941315547293,1.842372228449996,18.31875,4.39125,3.316875,13.21125,18.28125,60.0

